Freq.	V(vout)
1.00000000000000e+00	(-1.27514002802925e+01dB,-4.65406726947771e+00°)
1.02329299228075e+00	(-1.27526840098454e+01dB,-4.76201640944179e+00°)
1.04712854805090e+00	(-1.27540278330249e+01dB,-4.87244742967674e+00°)
1.07151930523761e+00	(-1.27554345425579e+01dB,-4.98541583218980e+00°)
1.09647819614318e+00	(-1.27569070600342e+01dB,-5.10097824925599e+00°)
1.12201845430196e+00	(-1.27584484389804e+01dB,-5.21919245917282e+00°)
1.14815362149688e+00	(-1.27600618750766e+01dB,-5.34011739906694e+00°)
1.17489755493953e+00	(-1.27617507072349e+01dB,-5.46381318115735e+00°)
1.20226443461741e+00	(-1.27635184272919e+01dB,-5.59034110493995e+00°)
1.23026877081238e+00	(-1.27653686860456e+01dB,-5.71976367060069e+00°)
1.25892541179417e+00	(-1.27673053001678e+01dB,-5.85214459048464e+00°)
1.28824955169313e+00	(-1.27693322573695e+01dB,-5.98754880329183e+00°)
1.31825673855641e+00	(-1.27714537284246e+01dB,-6.12604248032444e+00°)
1.34896288259165e+00	(-1.27736740699890e+01dB,-6.26769303967599e+00°)
1.38038426460288e+00	(-1.27759978368858e+01dB,-6.41256915081710e+00°)
1.41253754462275e+00	(-1.27784297858212e+01dB,-6.56074074675435e+00°)
1.44543977074593e+00	(-1.27809748893329e+01dB,-6.71227902486575e+00°)
1.47910838816821e+00	(-1.27836383409670e+01dB,-6.86725645615435e+00°)
1.51356124843621e+00	(-1.27864255665898e+01dB,-7.02574678638741e+00°)
1.54881661891248e+00	(-1.27893422322712e+01dB,-7.18782503877311e+00°)
1.58489319246111e+00	(-1.27923942567509e+01dB,-7.35356751343344e+00°)
1.62181009735893e+00	(-1.27955878196888e+01dB,-7.52305178459037e+00°)
1.65958690743756e+00	(-1.27989293735070e+01dB,-7.69635669875029e+00°)
1.69824365246174e+00	(-1.28024256546398e+01dB,-7.87356236600476e+00°)
1.73780082874937e+00	(-1.28060836937993e+01dB,-8.05475015193904e+00°)
1.77827941003892e+00	(-1.28099108286923e+01dB,-8.24000266741376e+00°)
1.81970085860998e+00	(-1.28139147171737e+01dB,-8.42940375199588e+00°)
1.86208713666287e+00	(-1.28181033472780e+01dB,-8.62303845954314e+00°)
1.90546071796325e+00	(-1.28224850522569e+01dB,-8.82099303445519e+00°)
1.94984459975804e+00	(-1.28270685241546e+01dB,-9.02335488999350e+00°)
1.99526231496888e+00	(-1.28318628251104e+01dB,-9.23021258033167e+00°)
2.04173794466953e+00	(-1.28368774041155e+01dB,-9.44165576609774e+00°)
2.08929613085404e+00	(-1.28421221097739e+01dB,-9.65777518211831e+00°)
2.13796208950223e+00	(-1.28476072054047e+01dB,-9.87866259525327e+00°)
2.18776162394955e+00	(-1.28533433843658e+01dB,-1.01044107574186e+01°)
2.23872113856834e+00	(-1.28593417858854e+01dB,-1.03351133573487e+01°)
2.29086765276777e+00	(-1.28656140096681e+01dB,-1.05708649634463e+01°)
2.34422881531992e+00	(-1.28721721318042e+01dB,-1.08117609626933e+01°)
2.39883291901949e+00	(-1.28790287224776e+01dB,-1.10578974928125e+01°)
2.45470891568503e+00	(-1.28861968620545e+01dB,-1.13093713664770e+01°)
2.51188643150958e+00	(-1.28936901567177e+01dB,-1.15662799931753e+01°)
2.57039578276886e+00	(-1.29015227561414e+01dB,-1.18287212874669e+01°)
2.63026799189538e+00	(-1.29097093700122e+01dB,-1.20967935785697e+01°)
2.69153480392691e+00	(-1.29182652864207e+01dB,-1.23705955009373e+01°)
2.75422870333816e+00	(-1.29272063868698e+01dB,-1.26502258868948e+01°)
2.81838293126445e+00	(-1.29365491655324e+01dB,-1.29357836433847e+01°)
2.88403150312660e+00	(-1.29463107447135e+01dB,-1.32273676250479e+01°)
2.95120922666638e+00	(-1.29565088923450e+01dB,-1.35250764942665e+01°)
3.01995172040201e+00	(-1.29671620388672e+01dB,-1.38290085730222e+01°)
3.09029543251359e+00	(-1.29782892927833e+01dB,-1.41392616848003e+01°)
3.16227766016837e+00	(-1.29899104578409e+01dB,-1.44559329839953e+01°)
3.23593656929628e+00	(-1.30020460472682e+01dB,-1.47791187798205e+01°)
3.31131121482591e+00	(-1.30147172989497e+01dB,-1.51089143433189e+01°)
3.38844156139202e+00	(-1.30279461903425e+01dB,-1.54454137059298e+01°)
3.46736850452531e+00	(-1.30417554514530e+01dB,-1.57887094435254e+01°)
3.54813389233575e+00	(-1.30561685767890e+01dB,-1.61388924564257e+01°)
3.63078054770101e+00	(-1.30712098374557e+01dB,-1.64960517292608e+01°)
3.71535229097172e+00	(-1.30869042895184e+01dB,-1.68602740815718e+01°)
3.80189396320560e+00	(-1.31032777867670e+01dB,-1.72316439052967e+01°)
3.89045144994280e+00	(-1.31203569823804e+01dB,-1.76102428963506e+01°)
3.98107170553496e+00	(-1.31381693379780e+01dB,-1.79961497635448e+01°)
4.07380277804112e+00	(-1.31567431275948e+01dB,-1.83894399333806e+01°)
4.16869383470335e+00	(-1.31761074368443e+01dB,-1.87901852431720e+01°)
4.26579518801592e+00	(-1.31962921634181e+01dB,-1.91984536170348e+01°)
4.36515832240165e+00	(-1.32173280139338e+01dB,-1.96143087391751e+01°)
4.46683592150962e+00	(-1.32392464972595e+01dB,-2.00378097084549e+01°)
4.57088189614874e+00	(-1.32620799174757e+01dB,-2.04690106886129e+01°)
4.67735141287197e+00	(-1.32858613593132e+01dB,-2.09079605503979e+01°)
4.78630092322637e+00	(-1.33106246764027e+01dB,-2.13547025005962e+01°)
4.89778819368445e+00	(-1.33364044693088e+01dB,-2.18092737084488e+01°)
5.01187233627271e+00	(-1.33632360656433e+01dB,-2.22717049285675e+01°)
5.12861383991364e+00	(-1.33911554920584e+01dB,-2.27420201130191e+01°)
5.24807460249771e+00	(-1.34201994469521e+01dB,-2.32202360245482e+01°)
5.37031796370252e+00	(-1.34504052622064e+01dB,-2.37063618504515e+01°)
5.49540873857623e+00	(-1.34818108669007e+01dB,-2.42003988169396e+01°)
5.62341325190348e+00	(-1.35144547421661e+01dB,-2.47023398014685e+01°)
5.75439937337156e+00	(-1.35483758754658e+01dB,-2.52121689559275e+01°)
5.88843655355588e+00	(-1.35836137038768e+01dB,-2.57298613389593e+01°)
6.02559586074356e+00	(-1.36202080598211e+01dB,-2.62553825540652e+01°)
6.16595001861481e+00	(-1.36581991053102e+01dB,-2.67886884021109e+01°)
6.30957344480192e+00	(-1.36976272661800e+01dB,-2.73297245440705e+01°)
6.45654229034654e+00	(-1.37385331592742e+01dB,-2.78784261968541e+01°)
6.60693448007594e+00	(-1.37809575120358e+01dB,-2.84347178411338e+01°)
6.76082975391980e+00	(-1.38249410838773e+01dB,-2.89985129512568e+01°)
6.91830970918935e+00	(-1.38705245755767e+01dB,-2.95697137595982e+01°)
7.07945784384136e+00	(-1.39177485405371e+01dB,-3.01482110475547e+01°)
7.24435960074988e+00	(-1.39666532873143e+01dB,-3.07338839756893e+01°)
7.41310241300916e+00	(-1.40172787791027e+01dB,-3.13265999523114e+01°)
7.58577575029182e+00	(-1.40696645323602e+01dB,-3.19262145333041e+01°)
7.76247116628690e+00	(-1.41238495090882e+01dB,-3.25325713773086e+01°)
7.94328234724279e+00	(-1.41798720068579e+01dB,-3.31455022388549e+01°)
8.12830516164097e+00	(-1.42377695484620e+01dB,-3.37648270166739e+01°)
8.31763771102669e+00	(-1.42975787680655e+01dB,-3.43903538479740e+01°)
8.51138038202374e+00	(-1.43593352959637e+01dB,-3.50218792637902e+01°)
8.70963589956078e+00	(-1.44230736455691e+01dB,-3.56591883866510e+01°)
8.91250938133743e+00	(-1.44888270965178e+01dB,-3.63020552026209e+01°)
9.12010839355907e+00	(-1.45566275826584e+01dB,-3.69502428750741e+01°)
9.33254300796988e+00	(-1.46265055788943e+01dB,-3.76035041226627e+01°)
9.54992586021433e+00	(-1.46984899924486e+01dB,-3.82615816556219e+01°)
9.77237220955808e+00	(-1.47726080556155e+01dB,-3.89242086707751e+01°)
9.99999999999997e+00	(-1.48488852234271e+01dB,-3.95911094026967e+01°)
1.02329299228075e+01	(-1.49273450767063e+01dB,-4.02619997207281e+01°)
1.04712854805090e+01	(-1.50080092291597e+01dB,-4.09365877962674e+01°)
1.07151930523760e+01	(-1.50908972406084e+01dB,-4.16145748068004e+01°)
1.09647819614318e+01	(-1.51760265399421e+01dB,-4.22956556897819e+01°)
1.12201845430196e+01	(-1.52634123513602e+01dB,-4.29795199509194e+01°)
1.14815362149688e+01	(-1.53530676336037e+01dB,-4.36658524855189e+01°)
1.17489755493953e+01	(-1.54450030222181e+01dB,-4.43543344770367e+01°)
1.20226443461741e+01	(-1.55392267870266e+01dB,-4.50446442811155e+01°)
1.23026877081238e+01	(-1.56357447948671e+01dB,-4.57364583673254e+01°)
1.25892541179416e+01	(-1.57345604835430e+01dB,-4.64294522692785e+01°)
1.28824955169313e+01	(-1.58356748467941e+01dB,-4.71233015429912e+01°)
1.31825673855640e+01	(-1.59390864283105e+01dB,-4.78176827480404e+01°)
1.34896288259165e+01	(-1.60447913259144e+01dB,-4.85122744212958e+01°)
1.38038426460288e+01	(-1.61527832073918e+01dB,-4.92067580507255e+01°)
1.41253754462275e+01	(-1.62630533347843e+01dB,-4.99008190403312e+01°)
1.44543977074592e+01	(-1.63755905997908e+01dB,-5.05941476636414e+01°)
1.47910838816820e+01	(-1.64903815683994e+01dB,-5.12864399897500e+01°)
1.51356124843620e+01	(-1.66074105333365e+01dB,-5.19773987996854e+01°)
1.54881661891248e+01	(-1.67266595776334e+01dB,-5.26667344593544e+01°)
1.58489319246111e+01	(-1.68481086438622e+01dB,-5.33541657684512e+01°)
1.62181009735892e+01	(-1.69717356124572e+01dB,-5.40394207680596e+01°)
1.65958690743755e+01	(-1.70975163865210e+01dB,-5.47222375062765e+01°)
1.69824365246174e+01	(-1.72254249817296e+01dB,-5.54023647712561e+01°)
1.73780082874937e+01	(-1.73554336238331e+01dB,-5.60795627627216e+01°)
1.77827941003892e+01	(-1.74875128477280e+01dB,-5.67536037332976e+01°)
1.81970085860998e+01	(-1.76216316035819e+01dB,-5.74242725684377e+01°)
1.86208713666286e+01	(-1.77577573628697e+01dB,-5.80913673269505e+01°)
1.90546071796324e+01	(-1.78958562297985e+01dB,-5.87546997268554e+01°)
1.94984459975804e+01	(-1.80358930509613e+01dB,-5.94140955898729e+01°)
1.99526231496887e+01	(-1.81778315289503e+01dB,-6.00693952269993e+01°)
2.04173794466952e+01	(-1.83216343328477e+01dB,-6.07204537992088e+01°)
2.08929613085403e+01	(-1.84672632104701e+01dB,-6.13671416097149e+01°)
2.13796208950222e+01	(-1.86146790978239e+01dB,-6.20093443777299e+01°)
2.18776162394954e+01	(-1.87638422266309e+01dB,-6.26469634595296e+01°)
2.23872113856833e+01	(-1.89147122303625e+01dB,-6.32799160422556e+01°)
2.29086765276776e+01	(-1.90672482450526e+01dB,-6.39081353024637e+01°)
2.34422881531991e+01	(-1.92214090087546e+01dB,-6.45315705416502e+01°)
2.39883291901948e+01	(-1.93771529555772e+01dB,-6.51501872894583e+01°)
2.45470891568502e+01	(-1.95344383049013e+01dB,-6.57639674038154e+01°)
2.51188643150957e+01	(-1.96932231475716e+01dB,-6.63729091348998e+01°)
2.57039578276885e+01	(-1.98534655245592e+01dB,-6.69770271943071e+01°)
2.63026799189537e+01	(-2.00151235018488e+01dB,-6.75763528203210e+01°)
2.69153480392690e+01	(-2.01781552399548e+01dB,-6.81709338245492e+01°)
2.75422870333815e+01	(-2.03425190556925e+01dB,-6.87608346616717e+01°)
2.81838293126444e+01	(-2.05081734803851e+01dB,-6.93461364936700e+01°)
2.88403150312659e+01	(-2.06750773100115e+01dB,-6.99269372796211e+01°)
2.95120922666637e+01	(-2.08431896501402e+01dB,-7.05033518715241e+01°)
3.01995172040200e+01	(-2.10124699544246e+01dB,-7.10755121405398e+01°)
3.09029543251358e+01	(-2.11828780562290e+01dB,-7.16435671312130e+01°)
3.16227766016837e+01	(-2.13543741941876e+01dB,-7.22076832413377e+01°)
3.23593656929627e+01	(-2.15269190311134e+01dB,-7.27680444478712e+01°)
3.31131121482590e+01	(-2.17004736655504e+01dB,-7.33248525728492e+01°)
3.38844156139201e+01	(-2.18749996375352e+01dB,-7.38783275901671e+01°)
3.46736850452530e+01	(-2.20504589264643e+01dB,-7.44287079927440e+01°)
3.54813389233574e+01	(-2.22268139425242e+01dB,-7.49762512095535e+01°)
3.63078054770100e+01	(-2.24040275094377e+01dB,-7.55212340952225e+01°)
3.71535229097171e+01	(-2.25820628416657e+01dB,-7.60639534697947e+01°)
3.80189396320559e+01	(-2.27608835113126e+01dB,-7.66047267463650e+01°)
3.89045144994279e+01	(-2.29404534081395e+01dB,-7.71438926286064e+01°)
3.98107170553495e+01	(-2.31207366901327e+01dB,-7.76818118900722e+01°)
4.07380277804111e+01	(-2.33016977246158e+01dB,-7.82188682422722e+01°)
4.16869383470333e+01	(-2.34833010190213e+01dB,-7.87554693002063e+01°)
4.26579518801591e+01	(-2.36655111410652e+01dB,-7.92920476358440e+01°)
4.36515832240164e+01	(-2.38482926266061e+01dB,-7.98290619470412e+01°)
4.46683592150961e+01	(-2.40316098742132e+01dB,-8.03669983318930e+01°)
4.57088189614873e+01	(-2.42154270260054e+01dB,-8.09063716729791e+01°)
4.67735141287196e+01	(-2.43997078316206e+01dB,-8.14477271571085e+01°)
4.78630092322636e+01	(-2.45844154954041e+01dB,-8.19916419005386e+01°)
4.89778819368444e+01	(-2.47695125031202e+01dB,-8.25387267256652e+01°)
5.01187233627270e+01	(-2.49549604269591e+01dB,-8.30896280652515e+01°)
5.12861383991362e+01	(-2.51407197058836e+01dB,-8.36450300073056e+01°)
5.24807460249770e+01	(-2.53267493980600e+01dB,-8.42056564891368e+01°)
5.37031796370250e+01	(-2.55130069021386e+01dB,-8.47722736371350e+01°)
5.49540873857622e+01	(-2.56994476434137e+01dB,-8.53456922587413e+01°)
5.62341325190346e+01	(-2.58860247202595e+01dB,-8.59267704859764e+01°)
5.75439937337154e+01	(-2.60726885063160e+01dB,-8.65164165619575e+01°)
5.88843655355586e+01	(-2.62593862017576e+01dB,-8.71155917812199e+01°)
6.02559586074355e+01	(-2.64460613283604e+01dB,-8.77253135612153e+01°)
6.16595001861479e+01	(-2.66326531602858e+01dB,-8.83466586428733e+01°)
6.30957344480190e+01	(-2.68190960833042e+01dB,-8.89807663990281e+01°)
6.45654229034652e+01	(-2.70053188730546e+01dB,-8.96288422271404e+01°)
6.60693448007593e+01	(-2.71912438826952e+01dB,-9.02921610013387e+01°)
6.76082975391978e+01	(-2.73767861292228e+01dB,-9.09720705374120e+01°)
6.91830970918933e+01	(-2.75618522663951e+01dB,-9.16699950176832e+01°)
7.07945784384134e+01	(-2.77463394320272e+01dB,-9.23874383136624e+01°)
7.24435960074986e+01	(-2.79301339552825e+01dB,-9.31259871236061e+01°)
7.41310241300914e+01	(-2.81131099103628e+01dB,-9.38873138118810e+01°)
7.58577575029180e+01	(-2.82951275010962e+01dB,-9.46731788345566e+01°)
7.76247116628688e+01	(-2.84760312620190e+01dB,-9.54854325814914e+01°)
7.94328234724277e+01	(-2.86556480607695e+01dB,-9.63260164533638e+01°)
8.12830516164095e+01	(-2.88337848885677e+01dB,-9.71969629435504e+01°)
8.31763771102667e+01	(-2.90102264276120e+01dB,-9.81003944419835e+01°)
8.51138038202372e+01	(-2.91847323869159e+01dB,-9.90385204507838e+01°)
8.70963589956076e+01	(-2.93570346039435e+01dB,-1.00013632827156e+02°)
8.91250938133741e+01	(-2.95268339162576e+01dB,-1.01028098619609e+02°)
9.12010839355905e+01	(-2.96937968178676e+01dB,-1.02084349995142e+02°)
9.33254300796986e+01	(-2.98575519268606e+01dB,-1.03184870712900e+02°)
9.54992586021431e+01	(-3.00176863098926e+01dB,-1.04332178514703e+02°)
9.77237220955805e+01	(-3.01737417284525e+01dB,-1.05528802796813e+02°)
9.99999999999995e+01	(-3.03252109005704e+01dB,-1.06777256860959e+02°)
1.02329299228075e+02	(-3.04715339008176e+01dB,-1.08080004096023e+02°)
1.04712854805089e+02	(-3.06120948606355e+01dB,-1.09439417449334e+02°)
1.07151930523760e+02	(-3.07462191703940e+01dB,-1.10857731692232e+02°)
1.09647819614318e+02	(-3.08731714291922e+01dB,-1.12336988166217e+02°)
1.12201845430196e+02	(-3.09921544325728e+01dB,-1.13878971984275e+02°)
1.14815362149688e+02	(-3.11023095280514e+01dB,-1.15485142079531e+02°)
1.17489755493952e+02	(-3.12027186986500e+01dB,-1.17156555027184e+02°)
1.20226443461741e+02	(-3.12924087472907e+01dB,-1.18893784239051e+02°)
1.23026877081237e+02	(-3.13703579431224e+01dB,-1.20696836902142e+02°)
1.25892541179416e+02	(-3.14355054409338e+01dB,-1.22565071914285e+02°)
1.28824955169313e+02	(-3.14867636945126e+01dB,-1.24497122924186e+02°)
1.31825673855640e+02	(-3.15230339410948e+01dB,-1.26490831388234e+02°)
1.34896288259165e+02	(-3.15432246406947e+01dB,-1.28543195132516e+02°)
1.38038426460288e+02	(-3.15462725145165e+01dB,-1.30650338138887e+02°)
1.41253754462275e+02	(-3.15311655575222e+01dB,-1.32807507008136e+02°)
1.44543977074592e+02	(-3.14969671245343e+01dB,-1.35009098697395e+02°)
1.47910838816820e+02	(-3.14428399456023e+01dB,-1.37248722600748e+02°)
1.51356124843620e+02	(-3.13680687479118e+01dB,-1.39519297927394e+02°)
1.54881661891247e+02	(-3.12720800902642e+01dB,-1.41813184754182e+02°)
1.58489319246110e+02	(-3.11544580778750e+01dB,-1.44122344359891e+02°)
1.62181009735892e+02	(-3.10149548287668e+01dB,-1.46438521842561e+02°)
1.65958690743755e+02	(-3.08534949009369e+01dB,-1.48753441906545e+02°)
1.69824365246173e+02	(-3.06701733225469e+01dB,-1.51059007432221e+02°)
1.73780082874936e+02	(-3.04652473471532e+01dB,-1.53347490177581e+02°)
1.77827941003891e+02	(-3.02391225184570e+01dB,-1.55611703773632e+02°)
1.81970085860997e+02	(-2.99923340193981e+01dB,-1.57845150915473e+02°)
1.86208713666286e+02	(-2.97255245512624e+01dB,-1.60042139073254e+02°)
1.90546071796323e+02	(-2.94394201200172e+01dB,-1.62197861790344e+02°)
1.94984459975803e+02	(-2.91348050964180e+01dB,-1.64308445352560e+02°)
1.99526231496887e+02	(-2.88124977873679e+01dB,-1.66370962986890e+02°)
2.04173794466952e+02	(-2.84733275372694e+01dB,-1.68383420587089e+02°)
2.08929613085403e+02	(-2.81181141146978e+01dB,-1.70344719150069e+02°)
2.13796208950222e+02	(-2.77476498624195e+01dB,-1.72254599670263e+02°)
2.18776162394954e+02	(-2.73626848331228e+01dB,-1.74113576242851e+02°)
2.23872113856832e+02	(-2.69639149152259e+01dB,-1.75922862718453e+02°)
2.29086765276776e+02	(-2.65519727859014e+01dB,-1.77684297565764e+02°)
2.34422881531991e+02	(-2.61274214123811e+01dB,-1.79400270775735e+02°)
2.39883291901947e+02	(-2.56907497544060e+01dB,1.78926344207807e+02°)
2.45470891568501e+02	(-2.52423702923465e+01dB,1.77292251339533e+02°)
2.51188643150956e+02	(-2.47826180079660e+01dB,1.75693784100582e+02°)
2.57039578276885e+02	(-2.43117504690788e+01dB,1.74126947948632e+02°)
2.63026799189536e+02	(-2.38299487072854e+01dB,1.72587452545662e+02°)
2.69153480392690e+02	(-2.33373186237480e+01dB,1.71070733492641e+02°)
2.75422870333815e+02	(-2.28338927067063e+01dB,1.69571963450106e+02°)
2.81838293126443e+02	(-2.23196318934404e+01dB,1.68086052564851e+02°)
2.88403150312659e+02	(-2.17944274572778e+01dB,1.66607638070075e+02°)
2.95120922666637e+02	(-2.12581028471244e+01dB,1.65131062792625e+02°)
3.01995172040200e+02	(-2.07104154537889e+01dB,1.63650342094672e+02°)
3.09029543251357e+02	(-2.01510583263680e+01dB,1.62159118504294e+02°)
3.16227766016836e+02	(-1.95796619163774e+01dB,1.60650602950952e+02°)
3.23593656929626e+02	(-1.89957959918963e+01dB,1.59117501117575e+02°)
3.31131121482589e+02	(-1.83989719450619e+01dB,1.57551922946967e+02°)
3.38844156139200e+02	(-1.77886458224683e+01dB,1.55945272795289e+02°)
3.46736850452529e+02	(-1.71642225516777e+01dB,1.54288117111617e+02°)
3.54813389233573e+02	(-1.65250620342403e+01dB,1.52570025854426e+02°)
3.63078054770099e+02	(-1.58704880500069e+01dB,1.50779383172109e+02°)
3.71535229097170e+02	(-1.51998012998134e+01dB,1.48903162258508e+02°)
3.80189396320558e+02	(-1.45122984475244e+01dB,1.46926658912041e+02°)
3.89045144994278e+02	(-1.38072997639040e+01dB,1.44833178486769e+02°)
3.98107170553494e+02	(-1.30841889962403e+01dB,1.42603672181628e+02°)
4.07380277804110e+02	(-1.23424704722851e+01dB,1.40216321939450e+02°)
4.16869383470332e+02	(-1.15818502749700e+01dB,1.37646080266663e+02°)
4.26579518801589e+02	(-1.08023506301387e+01dB,1.34864184750924e+02°)
4.36515832240163e+02	(-1.00044693249623e+01dB,1.31837691242592e+02°)
4.46683592150960e+02	(-9.18939856433493e+00dB,1.28529110981466e+02°)
4.57088189614872e+02	(-8.35931898095776e+00dB,1.24896303999708e+02°)
4.67735141287195e+02	(-7.51778193043899e+00dB,1.20892883161490e+02°)
4.78630092322635e+02	(-6.67018172873688e+00dB,1.16469524123806e+02°)
4.89778819368442e+02	(-5.82429086867657e+00dB,1.11576739501438e+02°)
5.01187233627268e+02	(-4.99077470440859e+00dB,1.06169792161005e+02°)
5.12861383991361e+02	(-4.18351035882477e+00dB,1.00216328266925e+02°)
5.24807460249769e+02	(-3.41942093633591e+00dB,9.37067219514456e+01°)
5.37031796370249e+02	(-2.71746289876806e+00dB,8.66657439078502e+01°)
5.49540873857620e+02	(-2.09649953880393e+00dB,7.91620740767802e+01°)
5.62341325190345e+02	(-1.57218878557401e+00dB,7.13104250589157e+01°)
5.75439937337152e+02	(-1.15365755590249e+00dB,6.32616920260225e+01°)
5.88843655355584e+02	(-8.41225069786608e-01dB,5.51810140913364e+01°)
6.02559586074353e+02	(-6.26234486866204e-01dB,4.72200691495740e+01°)
6.16595001861477e+02	(-4.93096596982139e-01dB,3.94934401905053e+01°)
6.30957344480188e+02	(-4.22617584430174e-01dB,3.20663437879046e+01°)
6.45654229034650e+02	(-3.95332639736712e-01dB,2.49547127803284e+01°)
6.60693448007591e+02	(-3.93972970360222e-01dB,1.81335856319137e+01°)
6.76082975391976e+02	(-4.04851517351169e-01dB,1.15485174710709e+01°)
6.91830970918931e+02	(-4.18404702851106e-01dB,5.12628054863133e+00°)
7.07945784384132e+02	(-4.29265926880829e-01dB,-1.21665356131041e+00°)
